
T0AF4 000:904 SEGGER J-Link V5.02f Log File (0031ms, 0555ms total)
T0AF4 000:904 DLL Compiled: Oct  2 2015 20:51:34 (0031ms, 0555ms total)
T0AF4 000:904 Logging started @ 2016-05-14 18:36 (0031ms, 0555ms total)
T0AF4 000:935 JLINK_SetWarnOutHandler(...) (0000ms, 0555ms total)
T0AF4 000:935 JLINK_OpenEx(...)
Firmware: J-Link V9 compiled Sep 18 2015 19:53:12
Hardware: V9.20
Feature(s): GDB, RDI, FlashBP, FlashDL, JFlash  returns O.K. (0406ms, 0961ms total)
T0AF4 001:341 JLINK_SetErrorOutHandler(...) (0000ms, 0961ms total)
T0AF4 001:341 JLINK_ExecCommand("ProjectFile = "D:\Inovative Projects\2015quadrotor\micro quadrotor\MicroQuadrotor12-31\MDK-ARM\JLinkSettings.ini"", ...)Device "UNSPECIFIED" selected.  returns 0x00 (0203ms, 1164ms total)
T0AF4 001:659 JLINK_ExecCommand("Device = STM32F411CEUx", ...)Device "UNSPECIFIED" selected.  returns 0x00 (0385ms, 1549ms total)
T0AF4 002:044 JLINK_ExecCommand("DisableConnectionTimeout", ...)  returns 0x01 (0000ms, 1550ms total)
T0AF4 002:045 JLINK_GetHardwareVersion()  returns 0x16760 (0000ms, 1550ms total)
T0AF4 002:045 JLINK_GetDLLVersion()  returns 50206 (0000ms, 1550ms total)
T0AF4 002:045 JLINK_GetFirmwareString(...) (0000ms, 1550ms total)
T0AF4 002:326 JLINK_GetDLLVersion()  returns 50206 (0000ms, 1550ms total)
T0AF4 002:326 JLINK_GetCompileDateTime() (0000ms, 1550ms total)
T0AF4 002:399 JLINK_GetFirmwareString(...) (0000ms, 1550ms total)
T0AF4 002:472 JLINK_GetHardwareVersion()  returns 0x16760 (0000ms, 1550ms total)
T0AF4 002:684 JLINK_TIF_Select(JLINKARM_TIF_SWD)  returns 0x00 (0001ms, 1551ms total)
T0AF4 002:685 JLINK_SetSpeed(5000) (0000ms, 1551ms total)
T0AF4 002:685 JLINK_GetId() >0x108 TIF>Found SWD-DP with ID 0x2BA01477 >0x0D TIF> >0x21 TIF> >0x0D TIF> >0x28 TIF> >0x0D TIF> >0x28 TIF> >0x0D TIF> >0x21 TIF> >0x0D TIF> >0x28 TIF> >0x0D TIF> >0x21 TIF> >0x0D TIF> >0x21 TIF> >0x0D TIF> >0x21 TIF> >0x0D TIF> >0x21 TIF> >0x0D TIF> >0x28 TIF> >0x0D TIF> >0x28 TIF> >0x0D TIF> >0x21 TIF> >0x0D TIF> >0x28 TIF> >0x0D TIF> >0x28 TIF> >0x0D TIF> >0x28 TIF> >0x0D TIF> >0x21 TIF> >0x0D TIF> >0x21 TIF> >0x0D TIF> >0x28 TIF> >0x0D TIF> >0x21 TIF> >0x0D TIF>
 >0x21 TIF>Found Cortex-M4 r0p1, Little endian. -- CPU_ReadMem(4 bytes @ 0xE000EDF0) -- CPU_WriteMem(4 bytes @ 0xE000EDF0) -- CPU_ReadMem(4 bytes @ 0xE0002000)FPUnit: 6 code (BP) slots and 2 literal slots -- CPU_ReadMem(4 bytes @ 0xE000EDFC) -- CPU_WriteMem(4 bytes @ 0xE000EDFC) -- CPU_ReadMem(4 bytes @ 0xE0001000) -- CPU_WriteMem(4 bytes @ 0xE0001000) -- CPU_ReadMem(4 bytes @ 0xE000ED88) -- CPU_WriteMem(4 bytes @ 0xE000ED88) -- CPU_ReadMem(4 bytes @ 0xE000ED88) -- CPU_WriteMem(4 bytes @ 0xE000ED88)
CoreSight components:ROMTbl 0 @ E00FF000 -- CPU_ReadMem(16 bytes @ 0xE00FF000) -- CPU_ReadMem(16 bytes @ 0xE000EFF0) -- CPU_ReadMem(16 bytes @ 0xE000EFE0)ROMTbl 0 [0]: FFF0F000, CID: B105E00D, PID: 000BB00C SCS -- CPU_ReadMem(16 bytes @ 0xE0001FF0) -- CPU_ReadMem(16 bytes @ 0xE0001FE0)ROMTbl 0 [1]: FFF02000, CID: B105E00D, PID: 003BB002 DWT -- CPU_ReadMem(16 bytes @ 0xE0002FF0) -- CPU_ReadMem(16 bytes @ 0xE0002FE0)ROMTbl 0 [2]: FFF03000, CID: B105E00D, PID: 002BB003 FPB
 -- CPU_ReadMem(16 bytes @ 0xE0000FF0) -- CPU_ReadMem(16 bytes @ 0xE0000FE0)ROMTbl 0 [3]: FFF01000, CID: B105E00D, PID: 003BB001 ITM -- CPU_ReadMem(16 bytes @ 0xE00FF010) -- CPU_ReadMem(16 bytes @ 0xE0040FF0) -- CPU_ReadMem(16 bytes @ 0xE0040FE0)ROMTbl 0 [4]: FFF41000, CID: B105900D, PID: 000BB9A1 TPIU -- CPU_ReadMem(16 bytes @ 0xE0041FF0) -- CPU_ReadMem(16 bytes @ 0xE0041FE0)ROMTbl 0 [5]: FFF42000, CID: B105900D, PID: 000BB925 ETM >0x0D TIF> >0x21 TIF>  returns 0x2BA01477 (0794ms, 2345ms total)
T0AF4 003:480 JLINK_GetDLLVersion()  returns 50206 (0000ms, 2345ms total)
T0AF4 003:480 JLINK_CORE_GetFound()  returns 0xE0000FF (0000ms, 2345ms total)
T0AF4 003:480 JLINK_GetDebugInfo(0x100) -- Value=0xE00FF003  returns 0x00 (0000ms, 2345ms total)
T0AF4 003:547 JLINK_GetDebugInfo(0x100) -- Value=0xE00FF003  returns 0x00 (0000ms, 2345ms total)
T0AF4 003:547 JLINK_GetDebugInfo(0x101) -- Value=0xE0041000  returns 0x00 (0000ms, 2345ms total)
T0AF4 003:547 JLINK_GetDebugInfo(0x102) -- Value=0x00000000  returns 0x00 (0000ms, 2345ms total)
T0AF4 003:547 JLINK_GetDebugInfo(0x103) -- Value=0xE0040000  returns 0x00 (0000ms, 2345ms total)
T0AF4 003:547 JLINK_GetDebugInfo(0x104) -- Value=0xE0000000  returns 0x00 (0000ms, 2345ms total)
T0AF4 003:547 JLINK_GetDebugInfo(0x105) -- Value=0xE0001000  returns 0x00 (0000ms, 2345ms total)
T0AF4 003:547 JLINK_GetDebugInfo(0x106) -- Value=0xE0002000  returns 0x00 (0001ms, 2346ms total)
T0AF4 003:548 JLINK_GetDebugInfo(0x107) -- Value=0xE000E000  returns 0x00 (0000ms, 2346ms total)
T0AF4 003:548 JLINK_GetDebugInfo(0x10C) -- Value=0xE000EDF0  returns 0x00 (0000ms, 2346ms total)
T0AF4 003:548 JLINK_ReadMemU32(0xE000EF40, 0x0001 Items, ...) -- CPU is running -- CPU_ReadMem(4 bytes @ 0xE000EF40) - Data: 21 00 11 10  returns 0x01 (0000ms, 2346ms total)
T0AF4 003:548 JLINK_ReadMemU32(0xE000EF44, 0x0001 Items, ...) -- CPU is running -- CPU_ReadMem(4 bytes @ 0xE000EF44) - Data: 11 00 00 11  returns 0x01 (0001ms, 2347ms total)
T0AF4 003:549 JLINK_ReadMemU32(0xE000ED00, 0x0001 Items, ...) -- CPU is running -- CPU_ReadMem(4 bytes @ 0xE000ED00) - Data: 41 C2 0F 41  returns 0x01 (0000ms, 2347ms total)
T0AF4 003:549 JLINK_SetResetType(JLINKARM_RESET_TYPE_NORMAL)  returns JLINKARM_RESET_TYPE_NORMAL (0000ms, 2347ms total)
T0AF4 003:549 JLINK_Reset() -- CPU is running -- CPU_WriteMem(4 bytes @ 0xE000EDF0) -- CPU is running -- CPU_WriteMem(4 bytes @ 0xE000EDFC) >0x35 TIF> -- CPU is running -- CPU_WriteMem(4 bytes @ 0xE000ED0C) -- CPU is running -- CPU_ReadMem(4 bytes @ 0xE000EDF0) -- CPU is running -- CPU_ReadMem(4 bytes @ 0xE000EDF0) -- CPU is running -- CPU_WriteMem(4 bytes @ 0xE000EDF0) -- CPU is running -- CPU_WriteMem(4 bytes @ 0xE000EDFC) -- CPU is running -- CPU_ReadMem(4 bytes @ 0xE000EDF0)
 -- CPU_WriteMem(4 bytes @ 0xE0002000) -- CPU_ReadMem(4 bytes @ 0xE000EDFC) -- CPU_ReadMem(4 bytes @ 0xE0001000) (0017ms, 2364ms total)
T0AF4 003:566 JLINK_Halt()  returns 0x00 (0000ms, 2364ms total)
T0AF4 003:566 JLINK_IsHalted()  returns TRUE (0000ms, 2364ms total)
T0AF4 003:566 JLINK_ReadMemU32(0xE000EDF0, 0x0001 Items, ...) -- CPU_ReadMem(4 bytes @ 0xE000EDF0) - Data: 03 00 03 00  returns 0x01 (0000ms, 2364ms total)
T0AF4 003:566 JLINK_WriteU32(0xE000EDF0, 0xA05F0003) -- CPU_WriteMem(4 bytes @ 0xE000EDF0)  returns 0x00 (0000ms, 2364ms total)
T0AF4 003:567 JLINK_WriteU32(0xE000EDFC, 0x01000000) -- CPU_WriteMem(4 bytes @ 0xE000EDFC)  returns 0x00 (0000ms, 2364ms total)
T0AF4 003:842 JLINK_GetHWStatus(...)  returns 0x00 (0000ms, 2364ms total)
T0AF4 004:048 JLINK_GetNumBPUnits(Type = 0xFFFFFF00)  returns 0x06 (0000ms, 2364ms total)
T0AF4 004:048 JLINK_GetNumBPUnits(Type = 0xF0)  returns 0x2000 (0000ms, 2364ms total)
T0AF4 004:048 JLINK_GetNumWPUnits()  returns 0x04 (0000ms, 2364ms total)
T0AF4 004:267 JLINK_GetSpeed()  returns 0xFA0 (0001ms, 2365ms total)
T0AF4 004:392 JLINK_ReadMemU32(0xE000E004, 0x0001 Items, ...) -- CPU_ReadMem(4 bytes @ 0xE000E004) - Data: 02 00 00 00  returns 0x01 (0001ms, 2366ms total)
T0AF4 004:393 JLINK_ReadMemU32(0xE000E004, 0x0001 Items, ...) -- CPU_ReadMem(4 bytes @ 0xE000E004) - Data: 02 00 00 00  returns 0x01 (0000ms, 2366ms total)
T0AF4 004:393 JLINK_WriteMem(0xE0001000, 0x001C Bytes, ...) - Data: 01 00 00 00 00 00 00 00 00 00 00 00 00 00 00 00 ... -- CPU_WriteMem(28 bytes @ 0xE0001000)  returns 0x1C (0002ms, 2368ms total)
T0AF4 004:395 JLINK_ReadMem (0xE0001000, 0x001C Bytes, ...) -- CPU_ReadMem(28 bytes @ 0xE0001000) - Data: 01 00 00 40 00 00 00 00 00 00 00 00 00 00 00 00 ...  returns 0x00 (0001ms, 2369ms total)
T0AF4 004:396 JLINK_Halt()  returns 0x00 (0000ms, 2369ms total)
T0AF4 004:396 JLINK_IsHalted()  returns TRUE (0000ms, 2369ms total)
T0AF4 004:507 JLINK_WriteMem(0x20000000, 0x0188 Bytes, ...) - Data: 00 BE 0A E0 0D 78 2D 06 68 40 08 24 40 00 00 D3 ... -- CPU_WriteMem(392 bytes @ 0x20000000)  returns 0x188 (0004ms, 2373ms total)
T0AF4 004:511 JLINK_WriteReg(R0, 0x08000000)  returns 0x00 (0000ms, 2373ms total)
T0AF4 004:511 JLINK_WriteReg(R1, 0x05F5E100)  returns 0x00 (0000ms, 2373ms total)
T0AF4 004:511 JLINK_WriteReg(R2, 0x00000001)  returns 0x00 (0000ms, 2373ms total)
T0AF4 004:511 JLINK_WriteReg(R3, 0x00000000)  returns 0x00 (0000ms, 2373ms total)
T0AF4 004:511 JLINK_WriteReg(R4, 0x00000000)  returns 0x00 (0000ms, 2373ms total)
T0AF4 004:511 JLINK_WriteReg(R5, 0x00000000)  returns 0x00 (0000ms, 2373ms total)
T0AF4 004:511 JLINK_WriteReg(R6, 0x00000000)  returns 0x00 (0000ms, 2373ms total)
T0AF4 004:511 JLINK_WriteReg(R7, 0x00000000)  returns 0x00 (0000ms, 2373ms total)
T0AF4 004:511 JLINK_WriteReg(R8, 0x00000000)  returns 0x00 (0000ms, 2373ms total)
T0AF4 004:511 JLINK_WriteReg(R9, 0x20000184)  returns 0x00 (0000ms, 2373ms total)
T0AF4 004:511 JLINK_WriteReg(R10, 0x00000000)  returns 0x00 (0000ms, 2373ms total)
T0AF4 004:511 JLINK_WriteReg(R11, 0x00000000)  returns 0x00 (0000ms, 2373ms total)
T0AF4 004:511 JLINK_WriteReg(R12, 0x00000000)  returns 0x00 (0000ms, 2373ms total)
T0AF4 004:511 JLINK_WriteReg(R13 (SP), 0x20001000)  returns 0x00 (0000ms, 2373ms total)
T0AF4 004:511 JLINK_WriteReg(R14, 0x20000001)  returns 0x00 (0001ms, 2374ms total)
T0AF4 004:512 JLINK_WriteReg(R15 (PC), 0x2000005E)  returns 0x00 (0000ms, 2374ms total)
T0AF4 004:512 JLINK_WriteReg(XPSR, 0x01000000)  returns 0x00 (0000ms, 2374ms total)
T0AF4 004:512 JLINK_WriteReg(MSP, 0x20001000)  returns 0x00 (0000ms, 2374ms total)
T0AF4 004:512 JLINK_WriteReg(PSP, 0x20001000)  returns 0x00 (0000ms, 2374ms total)
T0AF4 004:512 JLINK_WriteReg(CFBP, 0x00000000)  returns 0x00 (0000ms, 2374ms total)
T0AF4 004:512 JLINK_SetBPEx(Addr = 0x20000000, Type = 0xFFFFFFF2) -- CPU_ReadMem(4 bytes @ 0x20000000) -- CPU_WriteMem(4 bytes @ 0x20000000) -- CPU_ReadMem(4 bytes @ 0x20000000) -- CPU_WriteMem(4 bytes @ 0x20000000) -- CPU_ReadMem(2 bytes @ 0x20000000)  returns 0x00000001 (0002ms, 2376ms total)
T0AF4 004:514 JLINK_Go() -- CPU_WriteMem(2 bytes @ 0x20000000) -- CPU_ReadMem(4 bytes @ 0xE0001000) -- CPU_WriteMem(4 bytes @ 0xE0002008) -- CPU_WriteMem(4 bytes @ 0xE000200C) -- CPU_WriteMem(4 bytes @ 0xE0002010) -- CPU_WriteMem(4 bytes @ 0xE0002014) -- CPU_WriteMem(4 bytes @ 0xE0002018) -- CPU_WriteMem(4 bytes @ 0xE000201C) -- CPU_WriteMem(4 bytes @ 0xE0001004) (0003ms, 2379ms total)
T0AF4 004:517 JLINK_IsHalted() -- CPU_ReadMem(2 bytes @ 0x20000000)  returns TRUE (0003ms, 2382ms total)
T0AF4 004:520 JLINK_ReadReg(R15 (PC))  returns 0x20000000 (0000ms, 2379ms total)
T0AF4 004:520 JLINK_ClrBPEx(BPHandle = 0x00000001)  returns 0x00 (0000ms, 2379ms total)
T0AF4 004:520 JLINK_ReadReg(R0)  returns 0x00000000 (0000ms, 2379ms total)
T0AF4 004:522 JLINK_WriteReg(R0, 0x08000000)  returns 0x00 (0000ms, 2379ms total)
T0AF4 004:522 JLINK_WriteReg(R1, 0x00004000)  returns 0x00 (0000ms, 2379ms total)
T0AF4 004:522 JLINK_WriteReg(R2, 0x000000FF)  returns 0x00 (0000ms, 2379ms total)
T0AF4 004:522 JLINK_WriteReg(R3, 0x00000000)  returns 0x00 (0000ms, 2379ms total)
T0AF4 004:522 JLINK_WriteReg(R4, 0x00000000)  returns 0x00 (0000ms, 2379ms total)
T0AF4 004:522 JLINK_WriteReg(R5, 0x00000000)  returns 0x00 (0000ms, 2379ms total)
T0AF4 004:522 JLINK_WriteReg(R6, 0x00000000)  returns 0x00 (0000ms, 2379ms total)
T0AF4 004:522 JLINK_WriteReg(R7, 0x00000000)  returns 0x00 (0000ms, 2379ms total)
T0AF4 004:522 JLINK_WriteReg(R8, 0x00000000)  returns 0x00 (0000ms, 2379ms total)
T0AF4 004:522 JLINK_WriteReg(R9, 0x20000184)  returns 0x00 (0001ms, 2380ms total)
T0AF4 004:523 JLINK_WriteReg(R10, 0x00000000)  returns 0x00 (0000ms, 2380ms total)
T0AF4 004:523 JLINK_WriteReg(R11, 0x00000000)  returns 0x00 (0000ms, 2380ms total)
T0AF4 004:523 JLINK_WriteReg(R12, 0x00000000)  returns 0x00 (0000ms, 2380ms total)
T0AF4 004:523 JLINK_WriteReg(R13 (SP), 0x20001000)  returns 0x00 (0000ms, 2380ms total)
T0AF4 004:523 JLINK_WriteReg(R14, 0x20000001)  returns 0x00 (0000ms, 2380ms total)
T0AF4 004:523 JLINK_WriteReg(R15 (PC), 0x20000020)  returns 0x00 (0000ms, 2380ms total)
T0AF4 004:523 JLINK_WriteReg(XPSR, 0x01000000)  returns 0x00 (0000ms, 2380ms total)
T0AF4 004:523 JLINK_WriteReg(MSP, 0x20001000)  returns 0x00 (0000ms, 2380ms total)
T0AF4 004:523 JLINK_WriteReg(PSP, 0x20001000)  returns 0x00 (0000ms, 2380ms total)
T0AF4 004:523 JLINK_WriteReg(CFBP, 0x00000000)  returns 0x00 (0000ms, 2380ms total)
T0AF4 004:523 JLINK_SetBPEx(Addr = 0x20000000, Type = 0xFFFFFFF2)  returns 0x00000002 (0000ms, 2380ms total)
T0AF4 004:523 JLINK_Go() -- CPU_ReadMem(4 bytes @ 0xE0001000) (0001ms, 2381ms total)
T0AF4 004:525 JLINK_IsHalted() -- CPU_ReadMem(2 bytes @ 0x20000000)  returns TRUE (0002ms, 2384ms total)
T0AF4 004:527 JLINK_ReadReg(R15 (PC))  returns 0x20000000 (0000ms, 2382ms total)
T0AF4 004:527 JLINK_ClrBPEx(BPHandle = 0x00000002)  returns 0x00 (0000ms, 2382ms total)
T0AF4 004:527 JLINK_ReadReg(R0)  returns 0x00000001 (0000ms, 2382ms total)
T0AF4 004:527 JLINK_WriteReg(R0, 0x08000000)  returns 0x00 (0000ms, 2382ms total)
T0AF4 004:527 JLINK_WriteReg(R1, 0x00004000)  returns 0x00 (0000ms, 2382ms total)
T0AF4 004:527 JLINK_WriteReg(R2, 0x000000FF)  returns 0x00 (0000ms, 2382ms total)
T0AF4 004:527 JLINK_WriteReg(R3, 0x00000000)  returns 0x00 (0000ms, 2382ms total)
T0AF4 004:527 JLINK_WriteReg(R4, 0x00000000)  returns 0x00 (0000ms, 2382ms total)
T0AF4 004:527 JLINK_WriteReg(R5, 0x00000000)  returns 0x00 (0000ms, 2382ms total)
T0AF4 004:527 JLINK_WriteReg(R6, 0x00000000)  returns 0x00 (0000ms, 2382ms total)
T0AF4 004:527 JLINK_WriteReg(R7, 0x00000000)  returns 0x00 (0000ms, 2382ms total)
T0AF4 004:527 JLINK_WriteReg(R8, 0x00000000)  returns 0x00 (0000ms, 2382ms total)
T0AF4 004:527 JLINK_WriteReg(R9, 0x20000184)  returns 0x00 (0000ms, 2382ms total)
T0AF4 004:527 JLINK_WriteReg(R10, 0x00000000)  returns 0x00 (0000ms, 2382ms total)
T0AF4 004:527 JLINK_WriteReg(R11, 0x00000000)  returns 0x00 (0001ms, 2383ms total)
T0AF4 004:528 JLINK_WriteReg(R12, 0x00000000)  returns 0x00 (0000ms, 2383ms total)
T0AF4 004:528 JLINK_WriteReg(R13 (SP), 0x20001000)  returns 0x00 (0000ms, 2383ms total)
T0AF4 004:528 JLINK_WriteReg(R14, 0x20000001)  returns 0x00 (0000ms, 2383ms total)
T0AF4 004:528 JLINK_WriteReg(R15 (PC), 0x200000C6)  returns 0x00 (0000ms, 2383ms total)
T0AF4 004:528 JLINK_WriteReg(XPSR, 0x01000000)  returns 0x00 (0000ms, 2383ms total)
T0AF4 004:528 JLINK_WriteReg(MSP, 0x20001000)  returns 0x00 (0000ms, 2383ms total)
T0AF4 004:528 JLINK_WriteReg(PSP, 0x20001000)  returns 0x00 (0000ms, 2383ms total)
T0AF4 004:528 JLINK_WriteReg(CFBP, 0x00000000)  returns 0x00 (0000ms, 2383ms total)
T0AF4 004:528 JLINK_SetBPEx(Addr = 0x20000000, Type = 0xFFFFFFF2)  returns 0x00000003 (0000ms, 2383ms total)
T0AF4 004:528 JLINK_Go() -- CPU_ReadMem(4 bytes @ 0xE0001000) (0001ms, 2384ms total)
T0AF4 004:529 JLINK_IsHalted()  returns FALSE (0001ms, 2385ms total)
T0AF4 005:320 JLINK_IsHalted() -- CPU_ReadMem(2 bytes @ 0x20000000)  returns TRUE (0002ms, 2386ms total)
T0AF4 005:322 JLINK_ReadReg(R15 (PC))  returns 0x20000000 (0000ms, 2384ms total)
T0AF4 005:322 JLINK_ClrBPEx(BPHandle = 0x00000003)  returns 0x00 (0000ms, 2384ms total)
T0AF4 005:322 JLINK_ReadReg(R0)  returns 0x00000000 (0000ms, 2384ms total)
T0AF4 005:326 JLINK_WriteReg(R0, 0x08004000)  returns 0x00 (0000ms, 2384ms total)
T0AF4 005:326 JLINK_WriteReg(R1, 0x00004000)  returns 0x00 (0000ms, 2384ms total)
T0AF4 005:326 JLINK_WriteReg(R2, 0x000000FF)  returns 0x00 (0000ms, 2384ms total)
T0AF4 005:326 JLINK_WriteReg(R3, 0x00000000)  returns 0x00 (0000ms, 2384ms total)
T0AF4 005:326 JLINK_WriteReg(R4, 0x00000000)  returns 0x00 (0000ms, 2384ms total)
T0AF4 005:326 JLINK_WriteReg(R5, 0x00000000)  returns 0x00 (0000ms, 2384ms total)
T0AF4 005:326 JLINK_WriteReg(R6, 0x00000000)  returns 0x00 (0000ms, 2384ms total)
T0AF4 005:326 JLINK_WriteReg(R7, 0x00000000)  returns 0x00 (0000ms, 2384ms total)
T0AF4 005:326 JLINK_WriteReg(R8, 0x00000000)  returns 0x00 (0000ms, 2384ms total)
T0AF4 005:326 JLINK_WriteReg(R9, 0x20000184)  returns 0x00 (0000ms, 2384ms total)
T0AF4 005:326 JLINK_WriteReg(R10, 0x00000000)  returns 0x00 (0000ms, 2384ms total)
T0AF4 005:326 JLINK_WriteReg(R11, 0x00000000)  returns 0x00 (0001ms, 2385ms total)
T0AF4 005:327 JLINK_WriteReg(R12, 0x00000000)  returns 0x00 (0000ms, 2385ms total)
T0AF4 005:327 JLINK_WriteReg(R13 (SP), 0x20001000)  returns 0x00 (0000ms, 2385ms total)
T0AF4 005:327 JLINK_WriteReg(R14, 0x20000001)  returns 0x00 (0000ms, 2385ms total)
T0AF4 005:327 JLINK_WriteReg(R15 (PC), 0x20000020)  returns 0x00 (0000ms, 2385ms total)
T0AF4 005:327 JLINK_WriteReg(XPSR, 0x01000000)  returns 0x00 (0000ms, 2385ms total)
T0AF4 005:327 JLINK_WriteReg(MSP, 0x20001000)  returns 0x00 (0000ms, 2385ms total)
T0AF4 005:327 JLINK_WriteReg(PSP, 0x20001000)  returns 0x00 (0000ms, 2385ms total)
T0AF4 005:327 JLINK_WriteReg(CFBP, 0x00000000)  returns 0x00 (0000ms, 2385ms total)
T0AF4 005:327 JLINK_SetBPEx(Addr = 0x20000000, Type = 0xFFFFFFF2)  returns 0x00000004 (0000ms, 2385ms total)
T0AF4 005:327 JLINK_Go() -- CPU_ReadMem(4 bytes @ 0xE0001000) (0002ms, 2387ms total)
T0AF4 005:329 JLINK_IsHalted() -- CPU_ReadMem(2 bytes @ 0x20000000)  returns TRUE (0002ms, 2389ms total)
T0AF4 005:331 JLINK_ReadReg(R15 (PC))  returns 0x20000000 (0000ms, 2387ms total)
T0AF4 005:331 JLINK_ClrBPEx(BPHandle = 0x00000004)  returns 0x00 (0000ms, 2387ms total)
T0AF4 005:331 JLINK_ReadReg(R0)  returns 0x00000001 (0000ms, 2387ms total)
T0AF4 005:331 JLINK_WriteReg(R0, 0x08004000)  returns 0x00 (0000ms, 2387ms total)
T0AF4 005:331 JLINK_WriteReg(R1, 0x00004000)  returns 0x00 (0000ms, 2387ms total)
T0AF4 005:331 JLINK_WriteReg(R2, 0x000000FF)  returns 0x00 (0000ms, 2387ms total)
T0AF4 005:331 JLINK_WriteReg(R3, 0x00000000)  returns 0x00 (0000ms, 2387ms total)
T0AF4 005:331 JLINK_WriteReg(R4, 0x00000000)  returns 0x00 (0000ms, 2387ms total)
T0AF4 005:331 JLINK_WriteReg(R5, 0x00000000)  returns 0x00 (0000ms, 2387ms total)
T0AF4 005:331 JLINK_WriteReg(R6, 0x00000000)  returns 0x00 (0000ms, 2387ms total)
T0AF4 005:331 JLINK_WriteReg(R7, 0x00000000)  returns 0x00 (0000ms, 2387ms total)
T0AF4 005:331 JLINK_WriteReg(R8, 0x00000000)  returns 0x00 (0000ms, 2387ms total)
T0AF4 005:332 JLINK_WriteReg(R9, 0x20000184)  returns 0x00 (0000ms, 2387ms total)
T0AF4 005:332 JLINK_WriteReg(R10, 0x00000000)  returns 0x00 (0000ms, 2387ms total)
T0AF4 005:332 JLINK_WriteReg(R11, 0x00000000)  returns 0x00 (0000ms, 2387ms total)
T0AF4 005:332 JLINK_WriteReg(R12, 0x00000000)  returns 0x00 (0000ms, 2387ms total)
T0AF4 005:332 JLINK_WriteReg(R13 (SP), 0x20001000)  returns 0x00 (0000ms, 2387ms total)
T0AF4 005:332 JLINK_WriteReg(R14, 0x20000001)  returns 0x00 (0000ms, 2387ms total)
T0AF4 005:332 JLINK_WriteReg(R15 (PC), 0x200000C6)  returns 0x00 (0000ms, 2387ms total)
T0AF4 005:332 JLINK_WriteReg(XPSR, 0x01000000)  returns 0x00 (0000ms, 2387ms total)
T0AF4 005:332 JLINK_WriteReg(MSP, 0x20001000)  returns 0x00 (0000ms, 2387ms total)
T0AF4 005:332 JLINK_WriteReg(PSP, 0x20001000)  returns 0x00 (0000ms, 2387ms total)
T0AF4 005:332 JLINK_WriteReg(CFBP, 0x00000000)  returns 0x00 (0000ms, 2387ms total)
T0AF4 005:332 JLINK_SetBPEx(Addr = 0x20000000, Type = 0xFFFFFFF2)  returns 0x00000005 (0000ms, 2387ms total)
T0AF4 005:332 JLINK_Go() -- CPU_ReadMem(4 bytes @ 0xE0001000) (0001ms, 2388ms total)
T0AF4 005:333 JLINK_IsHalted()  returns FALSE (0001ms, 2389ms total)
T0AF4 005:675 JLINK_IsHalted()  returns FALSE (0001ms, 2389ms total)
T0AF4 006:038 JLINK_IsHalted() -- CPU_ReadMem(2 bytes @ 0x20000000)  returns TRUE (0002ms, 2390ms total)
T0AF4 006:040 JLINK_ReadReg(R15 (PC))  returns 0x20000000 (0000ms, 2388ms total)
T0AF4 006:040 JLINK_ClrBPEx(BPHandle = 0x00000005)  returns 0x00 (0000ms, 2388ms total)
T0AF4 006:040 JLINK_ReadReg(R0)  returns 0x00000000 (0000ms, 2388ms total)
T0AF4 006:043 JLINK_WriteReg(R0, 0x08008000)  returns 0x00 (0000ms, 2388ms total)
T0AF4 006:043 JLINK_WriteReg(R1, 0x00004000)  returns 0x00 (0000ms, 2388ms total)
T0AF4 006:043 JLINK_WriteReg(R2, 0x000000FF)  returns 0x00 (0000ms, 2388ms total)
T0AF4 006:043 JLINK_WriteReg(R3, 0x00000000)  returns 0x00 (0000ms, 2388ms total)
T0AF4 006:043 JLINK_WriteReg(R4, 0x00000000)  returns 0x00 (0000ms, 2388ms total)
T0AF4 006:043 JLINK_WriteReg(R5, 0x00000000)  returns 0x00 (0000ms, 2388ms total)
T0AF4 006:043 JLINK_WriteReg(R6, 0x00000000)  returns 0x00 (0000ms, 2388ms total)
T0AF4 006:043 JLINK_WriteReg(R7, 0x00000000)  returns 0x00 (0001ms, 2389ms total)
T0AF4 006:044 JLINK_WriteReg(R8, 0x00000000)  returns 0x00 (0000ms, 2389ms total)
T0AF4 006:044 JLINK_WriteReg(R9, 0x20000184)  returns 0x00 (0000ms, 2389ms total)
T0AF4 006:044 JLINK_WriteReg(R10, 0x00000000)  returns 0x00 (0000ms, 2389ms total)
T0AF4 006:044 JLINK_WriteReg(R11, 0x00000000)  returns 0x00 (0000ms, 2389ms total)
T0AF4 006:044 JLINK_WriteReg(R12, 0x00000000)  returns 0x00 (0000ms, 2389ms total)
T0AF4 006:044 JLINK_WriteReg(R13 (SP), 0x20001000)  returns 0x00 (0000ms, 2389ms total)
T0AF4 006:044 JLINK_WriteReg(R14, 0x20000001)  returns 0x00 (0000ms, 2389ms total)
T0AF4 006:044 JLINK_WriteReg(R15 (PC), 0x20000020)  returns 0x00 (0000ms, 2389ms total)
T0AF4 006:044 JLINK_WriteReg(XPSR, 0x01000000)  returns 0x00 (0000ms, 2389ms total)
T0AF4 006:044 JLINK_WriteReg(MSP, 0x20001000)  returns 0x00 (0000ms, 2389ms total)
T0AF4 006:044 JLINK_WriteReg(PSP, 0x20001000)  returns 0x00 (0000ms, 2389ms total)
T0AF4 006:044 JLINK_WriteReg(CFBP, 0x00000000)  returns 0x00 (0000ms, 2389ms total)
T0AF4 006:044 JLINK_SetBPEx(Addr = 0x20000000, Type = 0xFFFFFFF2)  returns 0x00000006 (0000ms, 2389ms total)
T0AF4 006:044 JLINK_Go() -- CPU_ReadMem(4 bytes @ 0xE0001000) (0002ms, 2391ms total)
T0AF4 006:046 JLINK_IsHalted() -- CPU_ReadMem(2 bytes @ 0x20000000)  returns TRUE (0002ms, 2393ms total)
T0AF4 006:048 JLINK_ReadReg(R15 (PC))  returns 0x20000000 (0000ms, 2391ms total)
T0AF4 006:048 JLINK_ClrBPEx(BPHandle = 0x00000006)  returns 0x00 (0000ms, 2391ms total)
T0AF4 006:048 JLINK_ReadReg(R0)  returns 0x00000001 (0000ms, 2391ms total)
T0AF4 006:048 JLINK_WriteReg(R0, 0x08008000)  returns 0x00 (0000ms, 2391ms total)
T0AF4 006:048 JLINK_WriteReg(R1, 0x00004000)  returns 0x00 (0000ms, 2391ms total)
T0AF4 006:048 JLINK_WriteReg(R2, 0x000000FF)  returns 0x00 (0000ms, 2391ms total)
T0AF4 006:048 JLINK_WriteReg(R3, 0x00000000)  returns 0x00 (0000ms, 2391ms total)
T0AF4 006:048 JLINK_WriteReg(R4, 0x00000000)  returns 0x00 (0000ms, 2391ms total)
T0AF4 006:048 JLINK_WriteReg(R5, 0x00000000)  returns 0x00 (0000ms, 2391ms total)
T0AF4 006:048 JLINK_WriteReg(R6, 0x00000000)  returns 0x00 (0000ms, 2391ms total)
T0AF4 006:048 JLINK_WriteReg(R7, 0x00000000)  returns 0x00 (0000ms, 2391ms total)
T0AF4 006:048 JLINK_WriteReg(R8, 0x00000000)  returns 0x00 (0000ms, 2391ms total)
T0AF4 006:048 JLINK_WriteReg(R9, 0x20000184)  returns 0x00 (0000ms, 2391ms total)
T0AF4 006:048 JLINK_WriteReg(R10, 0x00000000)  returns 0x00 (0000ms, 2391ms total)
T0AF4 006:048 JLINK_WriteReg(R11, 0x00000000)  returns 0x00 (0000ms, 2391ms total)
T0AF4 006:048 JLINK_WriteReg(R12, 0x00000000)  returns 0x00 (0001ms, 2392ms total)
T0AF4 006:049 JLINK_WriteReg(R13 (SP), 0x20001000)  returns 0x00 (0000ms, 2392ms total)
T0AF4 006:049 JLINK_WriteReg(R14, 0x20000001)  returns 0x00 (0000ms, 2392ms total)
T0AF4 006:049 JLINK_WriteReg(R15 (PC), 0x200000C6)  returns 0x00 (0000ms, 2392ms total)
T0AF4 006:049 JLINK_WriteReg(XPSR, 0x01000000)  returns 0x00 (0000ms, 2392ms total)
T0AF4 006:049 JLINK_WriteReg(MSP, 0x20001000)  returns 0x00 (0000ms, 2392ms total)
T0AF4 006:049 JLINK_WriteReg(PSP, 0x20001000)  returns 0x00 (0000ms, 2392ms total)
T0AF4 006:049 JLINK_WriteReg(CFBP, 0x00000000)  returns 0x00 (0000ms, 2392ms total)
T0AF4 006:049 JLINK_SetBPEx(Addr = 0x20000000, Type = 0xFFFFFFF2)  returns 0x00000007 (0000ms, 2392ms total)
T0AF4 006:049 JLINK_Go() -- CPU_ReadMem(4 bytes @ 0xE0001000) (0001ms, 2393ms total)
T0AF4 006:050 JLINK_IsHalted()  returns FALSE (0001ms, 2394ms total)
T0AF4 006:445 JLINK_IsHalted() -- CPU_ReadMem(2 bytes @ 0x20000000)  returns TRUE (0002ms, 2395ms total)
T0AF4 006:447 JLINK_ReadReg(R15 (PC))  returns 0x20000000 (0000ms, 2393ms total)
T0AF4 006:447 JLINK_ClrBPEx(BPHandle = 0x00000007)  returns 0x00 (0000ms, 2393ms total)
T0AF4 006:447 JLINK_ReadReg(R0)  returns 0x00000000 (0000ms, 2393ms total)
T0AF4 006:449 JLINK_WriteReg(R0, 0x00000001)  returns 0x00 (0000ms, 2393ms total)
T0AF4 006:449 JLINK_WriteReg(R1, 0x00004000)  returns 0x00 (0000ms, 2393ms total)
T0AF4 006:449 JLINK_WriteReg(R2, 0x000000FF)  returns 0x00 (0000ms, 2393ms total)
T0AF4 006:449 JLINK_WriteReg(R3, 0x00000000)  returns 0x00 (0000ms, 2393ms total)
T0AF4 006:449 JLINK_WriteReg(R4, 0x00000000)  returns 0x00 (0000ms, 2393ms total)
T0AF4 006:449 JLINK_WriteReg(R5, 0x00000000)  returns 0x00 (0000ms, 2393ms total)
T0AF4 006:449 JLINK_WriteReg(R6, 0x00000000)  returns 0x00 (0000ms, 2393ms total)
T0AF4 006:449 JLINK_WriteReg(R7, 0x00000000)  returns 0x00 (0000ms, 2393ms total)
T0AF4 006:449 JLINK_WriteReg(R8, 0x00000000)  returns 0x00 (0000ms, 2393ms total)
T0AF4 006:449 JLINK_WriteReg(R9, 0x20000184)  returns 0x00 (0000ms, 2393ms total)
T0AF4 006:449 JLINK_WriteReg(R10, 0x00000000)  returns 0x00 (0000ms, 2393ms total)
T0AF4 006:449 JLINK_WriteReg(R11, 0x00000000)  returns 0x00 (0000ms, 2393ms total)
T0AF4 006:449 JLINK_WriteReg(R12, 0x00000000)  returns 0x00 (0000ms, 2393ms total)
T0AF4 006:449 JLINK_WriteReg(R13 (SP), 0x20001000)  returns 0x00 (0000ms, 2393ms total)
T0AF4 006:449 JLINK_WriteReg(R14, 0x20000001)  returns 0x00 (0000ms, 2393ms total)
T0AF4 006:449 JLINK_WriteReg(R15 (PC), 0x2000008C)  returns 0x00 (0000ms, 2393ms total)
T0AF4 006:449 JLINK_WriteReg(XPSR, 0x01000000)  returns 0x00 (0001ms, 2394ms total)
T0AF4 006:450 JLINK_WriteReg(MSP, 0x20001000)  returns 0x00 (0000ms, 2394ms total)
T0AF4 006:450 JLINK_WriteReg(PSP, 0x20001000)  returns 0x00 (0000ms, 2394ms total)
T0AF4 006:450 JLINK_WriteReg(CFBP, 0x00000000)  returns 0x00 (0000ms, 2394ms total)
T0AF4 006:450 JLINK_SetBPEx(Addr = 0x20000000, Type = 0xFFFFFFF2)  returns 0x00000008 (0000ms, 2394ms total)
T0AF4 006:450 JLINK_Go() -- CPU_ReadMem(4 bytes @ 0xE0001000) (0001ms, 2395ms total)
T0AF4 006:451 JLINK_IsHalted() -- CPU_ReadMem(2 bytes @ 0x20000000)  returns TRUE (0003ms, 2398ms total)
T0AF4 006:454 JLINK_ReadReg(R15 (PC))  returns 0x20000000 (0000ms, 2395ms total)
T0AF4 006:454 JLINK_ClrBPEx(BPHandle = 0x00000008)  returns 0x00 (0000ms, 2395ms total)
T0AF4 006:454 JLINK_ReadReg(R0)  returns 0x00000000 (0000ms, 2395ms total)
T0AF4 006:572 JLINK_WriteMem(0x20000000, 0x0188 Bytes, ...) - Data: 00 BE 0A E0 0D 78 2D 06 68 40 08 24 40 00 00 D3 ... -- CPU_WriteMem(392 bytes @ 0x20000000)  returns 0x188 (0002ms, 2397ms total)
T0AF4 006:574 JLINK_WriteReg(R0, 0x08000000)  returns 0x00 (0000ms, 2397ms total)
T0AF4 006:574 JLINK_WriteReg(R1, 0x05F5E100)  returns 0x00 (0000ms, 2397ms total)
T0AF4 006:574 JLINK_WriteReg(R2, 0x00000002)  returns 0x00 (0000ms, 2397ms total)
T0AF4 006:574 JLINK_WriteReg(R3, 0x00000000)  returns 0x00 (0000ms, 2397ms total)
T0AF4 006:574 JLINK_WriteReg(R4, 0x00000000)  returns 0x00 (0000ms, 2397ms total)
T0AF4 006:574 JLINK_WriteReg(R5, 0x00000000)  returns 0x00 (0000ms, 2397ms total)
T0AF4 006:574 JLINK_WriteReg(R6, 0x00000000)  returns 0x00 (0000ms, 2397ms total)
T0AF4 006:574 JLINK_WriteReg(R7, 0x00000000)  returns 0x00 (0000ms, 2397ms total)
T0AF4 006:574 JLINK_WriteReg(R8, 0x00000000)  returns 0x00 (0000ms, 2397ms total)
T0AF4 006:574 JLINK_WriteReg(R9, 0x20000184)  returns 0x00 (0000ms, 2397ms total)
T0AF4 006:574 JLINK_WriteReg(R10, 0x00000000)  returns 0x00 (0001ms, 2398ms total)
T0AF4 006:575 JLINK_WriteReg(R11, 0x00000000)  returns 0x00 (0000ms, 2398ms total)
T0AF4 006:575 JLINK_WriteReg(R12, 0x00000000)  returns 0x00 (0000ms, 2398ms total)
T0AF4 006:575 JLINK_WriteReg(R13 (SP), 0x20001000)  returns 0x00 (0000ms, 2398ms total)
T0AF4 006:575 JLINK_WriteReg(R14, 0x20000001)  returns 0x00 (0000ms, 2398ms total)
T0AF4 006:575 JLINK_WriteReg(R15 (PC), 0x2000005E)  returns 0x00 (0000ms, 2398ms total)
T0AF4 006:575 JLINK_WriteReg(XPSR, 0x01000000)  returns 0x00 (0000ms, 2398ms total)
T0AF4 006:575 JLINK_WriteReg(MSP, 0x20001000)  returns 0x00 (0000ms, 2398ms total)
T0AF4 006:575 JLINK_WriteReg(PSP, 0x20001000)  returns 0x00 (0000ms, 2398ms total)
T0AF4 006:575 JLINK_WriteReg(CFBP, 0x00000000)  returns 0x00 (0000ms, 2398ms total)
T0AF4 006:575 JLINK_SetBPEx(Addr = 0x20000000, Type = 0xFFFFFFF2) -- CPU_ReadMem(4 bytes @ 0x20000000) -- CPU_WriteMem(4 bytes @ 0x20000000) -- CPU_ReadMem(4 bytes @ 0x20000000) -- CPU_WriteMem(4 bytes @ 0x20000000) -- CPU_ReadMem(2 bytes @ 0x20000000)  returns 0x00000009 (0002ms, 2400ms total)
T0AF4 006:577 JLINK_Go() -- CPU_WriteMem(2 bytes @ 0x20000000) -- CPU_ReadMem(4 bytes @ 0xE0001000) (0002ms, 2402ms total)
T0AF4 006:579 JLINK_IsHalted() -- CPU_ReadMem(2 bytes @ 0x20000000)  returns TRUE (0002ms, 2404ms total)
T0AF4 006:581 JLINK_ReadReg(R15 (PC))  returns 0x20000000 (0000ms, 2402ms total)
T0AF4 006:581 JLINK_ClrBPEx(BPHandle = 0x00000009)  returns 0x00 (0000ms, 2402ms total)
T0AF4 006:581 JLINK_ReadReg(R0)  returns 0x00000000 (0000ms, 2402ms total)
T0AF4 006:583 JLINK_WriteMem(0x20000188, 0x0400 Bytes, ...) - Data: 80 90 00 20 69 02 00 08 71 02 00 08 D5 3D 00 08 ... -- CPU_WriteMem(1024 bytes @ 0x20000188)  returns 0x400 (0004ms, 2406ms total)
T0AF4 006:587 JLINK_WriteReg(R0, 0x08000000)  returns 0x00 (0001ms, 2407ms total)
T0AF4 006:588 JLINK_WriteReg(R1, 0x00000400)  returns 0x00 (0000ms, 2407ms total)
T0AF4 006:588 JLINK_WriteReg(R2, 0x20000188)  returns 0x00 (0000ms, 2407ms total)
T0AF4 006:588 JLINK_WriteReg(R3, 0x00000000)  returns 0x00 (0000ms, 2407ms total)
T0AF4 006:588 JLINK_WriteReg(R4, 0x00000000)  returns 0x00 (0000ms, 2407ms total)
T0AF4 006:588 JLINK_WriteReg(R5, 0x00000000)  returns 0x00 (0000ms, 2407ms total)
T0AF4 006:588 JLINK_WriteReg(R6, 0x00000000)  returns 0x00 (0000ms, 2407ms total)
T0AF4 006:588 JLINK_WriteReg(R7, 0x00000000)  returns 0x00 (0000ms, 2407ms total)
T0AF4 006:588 JLINK_WriteReg(R8, 0x00000000)  returns 0x00 (0000ms, 2407ms total)
T0AF4 006:588 JLINK_WriteReg(R9, 0x20000184)  returns 0x00 (0000ms, 2407ms total)
T0AF4 006:588 JLINK_WriteReg(R10, 0x00000000)  returns 0x00 (0000ms, 2407ms total)
T0AF4 006:588 JLINK_WriteReg(R11, 0x00000000)  returns 0x00 (0000ms, 2407ms total)
T0AF4 006:588 JLINK_WriteReg(R12, 0x00000000)  returns 0x00 (0000ms, 2407ms total)
T0AF4 006:588 JLINK_WriteReg(R13 (SP), 0x20001000)  returns 0x00 (0000ms, 2407ms total)
T0AF4 006:588 JLINK_WriteReg(R14, 0x20000001)  returns 0x00 (0000ms, 2407ms total)
T0AF4 006:588 JLINK_WriteReg(R15 (PC), 0x20000112)  returns 0x00 (0000ms, 2407ms total)
T0AF4 006:588 JLINK_WriteReg(XPSR, 0x01000000)  returns 0x00 (0000ms, 2407ms total)
T0AF4 006:588 JLINK_WriteReg(MSP, 0x20001000)  returns 0x00 (0000ms, 2407ms total)
T0AF4 006:588 JLINK_WriteReg(PSP, 0x20001000)  returns 0x00 (0000ms, 2407ms total)
T0AF4 006:588 JLINK_WriteReg(CFBP, 0x00000000)  returns 0x00 (0000ms, 2407ms total)
T0AF4 006:588 JLINK_SetBPEx(Addr = 0x20000000, Type = 0xFFFFFFF2)  returns 0x0000000A (0000ms, 2407ms total)
T0AF4 006:588 JLINK_Go() -- CPU_ReadMem(4 bytes @ 0xE0001000) (0002ms, 2409ms total)
T0AF4 006:590 JLINK_IsHalted()  returns FALSE (0000ms, 2409ms total)
T0AF4 006:964 JLINK_IsHalted() -- CPU_ReadMem(2 bytes @ 0x20000000)  returns TRUE (0002ms, 2411ms total)
T0AF4 006:966 JLINK_ReadReg(R15 (PC))  returns 0x20000000 (0000ms, 2409ms total)
T0AF4 006:966 JLINK_ClrBPEx(BPHandle = 0x0000000A)  returns 0x00 (0000ms, 2409ms total)
T0AF4 006:966 JLINK_ReadReg(R0)  returns 0x00000000 (0000ms, 2409ms total)
T0AF4 006:970 JLINK_WriteMem(0x20000188, 0x0400 Bytes, ...) - Data: 63 EB E0 73 00 98 21 46 4F EA E0 74 B8 EB 00 00 ... -- CPU_WriteMem(1024 bytes @ 0x20000188)  returns 0x400 (0005ms, 2414ms total)
T0AF4 006:975 JLINK_WriteReg(R0, 0x08000400)  returns 0x00 (0000ms, 2414ms total)
T0AF4 006:975 JLINK_WriteReg(R1, 0x00000400)  returns 0x00 (0000ms, 2414ms total)
T0AF4 006:975 JLINK_WriteReg(R2, 0x20000188)  returns 0x00 (0000ms, 2414ms total)
T0AF4 006:975 JLINK_WriteReg(R3, 0x00000000)  returns 0x00 (0000ms, 2414ms total)
T0AF4 006:975 JLINK_WriteReg(R4, 0x00000000)  returns 0x00 (0000ms, 2414ms total)
T0AF4 006:975 JLINK_WriteReg(R5, 0x00000000)  returns 0x00 (0000ms, 2414ms total)
T0AF4 006:975 JLINK_WriteReg(R6, 0x00000000)  returns 0x00 (0000ms, 2414ms total)
T0AF4 006:975 JLINK_WriteReg(R7, 0x00000000)  returns 0x00 (0000ms, 2414ms total)
T0AF4 006:975 JLINK_WriteReg(R8, 0x00000000)  returns 0x00 (0000ms, 2414ms total)
T0AF4 006:975 JLINK_WriteReg(R9, 0x20000184)  returns 0x00 (0000ms, 2414ms total)
T0AF4 006:975 JLINK_WriteReg(R10, 0x00000000)  returns 0x00 (0000ms, 2414ms total)
T0AF4 006:975 JLINK_WriteReg(R11, 0x00000000)  returns 0x00 (0000ms, 2414ms total)
T0AF4 006:975 JLINK_WriteReg(R12, 0x00000000)  returns 0x00 (0000ms, 2414ms total)
T0AF4 006:975 JLINK_WriteReg(R13 (SP), 0x20001000)  returns 0x00 (0000ms, 2414ms total)
T0AF4 006:975 JLINK_WriteReg(R14, 0x20000001)  returns 0x00 (0000ms, 2414ms total)
T0AF4 006:975 JLINK_WriteReg(R15 (PC), 0x20000112)  returns 0x00 (0000ms, 2414ms total)
T0AF4 006:975 JLINK_WriteReg(XPSR, 0x01000000)  returns 0x00 (0000ms, 2414ms total)
T0AF4 006:975 JLINK_WriteReg(MSP, 0x20001000)  returns 0x00 (0000ms, 2414ms total)
T0AF4 006:975 JLINK_WriteReg(PSP, 0x20001000)  returns 0x00 (0000ms, 2414ms total)
T0AF4 006:975 JLINK_WriteReg(CFBP, 0x00000000)  returns 0x00 (0000ms, 2414ms total)
T0AF4 006:975 JLINK_SetBPEx(Addr = 0x20000000, Type = 0xFFFFFFF2)  returns 0x0000000B (0000ms, 2414ms total)
T0AF4 006:975 JLINK_Go() -- CPU_ReadMem(4 bytes @ 0xE0001000) (0002ms, 2416ms total)
T0AF4 006:977 JLINK_IsHalted()  returns FALSE (0000ms, 2416ms total)
T0AF4 007:377 JLINK_IsHalted() -- CPU_ReadMem(2 bytes @ 0x20000000)  returns TRUE (0003ms, 2419ms total)
T0AF4 007:380 JLINK_ReadReg(R15 (PC))  returns 0x20000000 (0000ms, 2416ms total)
T0AF4 007:380 JLINK_ClrBPEx(BPHandle = 0x0000000B)  returns 0x00 (0000ms, 2416ms total)
T0AF4 007:380 JLINK_ReadReg(R0)  returns 0x00000000 (0000ms, 2416ms total)
T0AF4 007:383 JLINK_WriteMem(0x20000188, 0x0400 Bytes, ...) - Data: 69 41 BD E8 F0 4D A2 E7 70 B5 21 F0 00 43 03 43 ... -- CPU_WriteMem(1024 bytes @ 0x20000188)  returns 0x400 (0004ms, 2420ms total)
T0AF4 007:387 JLINK_WriteReg(R0, 0x08000800)  returns 0x00 (0001ms, 2421ms total)
T0AF4 007:388 JLINK_WriteReg(R1, 0x00000400)  returns 0x00 (0000ms, 2421ms total)
T0AF4 007:388 JLINK_WriteReg(R2, 0x20000188)  returns 0x00 (0000ms, 2421ms total)
T0AF4 007:388 JLINK_WriteReg(R3, 0x00000000)  returns 0x00 (0000ms, 2421ms total)
T0AF4 007:388 JLINK_WriteReg(R4, 0x00000000)  returns 0x00 (0000ms, 2421ms total)
T0AF4 007:388 JLINK_WriteReg(R5, 0x00000000)  returns 0x00 (0000ms, 2421ms total)
T0AF4 007:388 JLINK_WriteReg(R6, 0x00000000)  returns 0x00 (0000ms, 2421ms total)
T0AF4 007:388 JLINK_WriteReg(R7, 0x00000000)  returns 0x00 (0000ms, 2421ms total)
T0AF4 007:388 JLINK_WriteReg(R8, 0x00000000)  returns 0x00 (0000ms, 2421ms total)
T0AF4 007:388 JLINK_WriteReg(R9, 0x20000184)  returns 0x00 (0000ms, 2421ms total)
T0AF4 007:388 JLINK_WriteReg(R10, 0x00000000)  returns 0x00 (0000ms, 2421ms total)
T0AF4 007:388 JLINK_WriteReg(R11, 0x00000000)  returns 0x00 (0000ms, 2421ms total)
T0AF4 007:388 JLINK_WriteReg(R12, 0x00000000)  returns 0x00 (0000ms, 2421ms total)
T0AF4 007:388 JLINK_WriteReg(R13 (SP), 0x20001000)  returns 0x00 (0000ms, 2421ms total)
T0AF4 007:388 JLINK_WriteReg(R14, 0x20000001)  returns 0x00 (0000ms, 2421ms total)
T0AF4 007:388 JLINK_WriteReg(R15 (PC), 0x20000112)  returns 0x00 (0000ms, 2421ms total)
T0AF4 007:388 JLINK_WriteReg(XPSR, 0x01000000)  returns 0x00 (0000ms, 2421ms total)
T0AF4 007:388 JLINK_WriteReg(MSP, 0x20001000)  returns 0x00 (0000ms, 2421ms total)
T0AF4 007:388 JLINK_WriteReg(PSP, 0x20001000)  returns 0x00 (0000ms, 2421ms total)
T0AF4 007:388 JLINK_WriteReg(CFBP, 0x00000000)  returns 0x00 (0000ms, 2421ms total)
T0AF4 007:388 JLINK_SetBPEx(Addr = 0x20000000, Type = 0xFFFFFFF2)  returns 0x0000000C (0000ms, 2421ms total)
T0AF4 007:388 JLINK_Go() -- CPU_ReadMem(4 bytes @ 0xE0001000) (0002ms, 2423ms total)
T0AF4 007:390 JLINK_IsHalted()  returns FALSE (0000ms, 2423ms total)
T0AF4 007:728 JLINK_IsHalted() -- CPU_ReadMem(2 bytes @ 0x20000000)  returns TRUE (0002ms, 2425ms total)
T0AF4 007:730 JLINK_ReadReg(R15 (PC))  returns 0x20000000 (0000ms, 2423ms total)
T0AF4 007:730 JLINK_ClrBPEx(BPHandle = 0x0000000C)  returns 0x00 (0000ms, 2423ms total)
T0AF4 007:730 JLINK_ReadReg(R0)  returns 0x00000000 (0000ms, 2423ms total)
T0AF4 007:733 JLINK_WriteMem(0x20000188, 0x0400 Bytes, ...) - Data: 8A 60 41 6A C1 B1 01 68 4A 68 42 F4 00 62 4A 60 ... -- CPU_WriteMem(1024 bytes @ 0x20000188)  returns 0x400 (0004ms, 2427ms total)
T0AF4 007:737 JLINK_WriteReg(R0, 0x08000C00)  returns 0x00 (0000ms, 2427ms total)
T0AF4 007:737 JLINK_WriteReg(R1, 0x00000400)  returns 0x00 (0000ms, 2427ms total)
T0AF4 007:737 JLINK_WriteReg(R2, 0x20000188)  returns 0x00 (0000ms, 2427ms total)
T0AF4 007:737 JLINK_WriteReg(R3, 0x00000000)  returns 0x00 (0000ms, 2427ms total)
T0AF4 007:737 JLINK_WriteReg(R4, 0x00000000)  returns 0x00 (0001ms, 2428ms total)
T0AF4 007:738 JLINK_WriteReg(R5, 0x00000000)  returns 0x00 (0000ms, 2428ms total)
T0AF4 007:738 JLINK_WriteReg(R6, 0x00000000)  returns 0x00 (0000ms, 2428ms total)
T0AF4 007:738 JLINK_WriteReg(R7, 0x00000000)  returns 0x00 (0000ms, 2428ms total)
T0AF4 007:738 JLINK_WriteReg(R8, 0x00000000)  returns 0x00 (0000ms, 2428ms total)
T0AF4 007:738 JLINK_WriteReg(R9, 0x20000184)  returns 0x00 (0000ms, 2428ms total)
T0AF4 007:738 JLINK_WriteReg(R10, 0x00000000)  returns 0x00 (0000ms, 2428ms total)
T0AF4 007:738 JLINK_WriteReg(R11, 0x00000000)  returns 0x00 (0000ms, 2428ms total)
T0AF4 007:738 JLINK_WriteReg(R12, 0x00000000)  returns 0x00 (0000ms, 2428ms total)
T0AF4 007:738 JLINK_WriteReg(R13 (SP), 0x20001000)  returns 0x00 (0000ms, 2428ms total)
T0AF4 007:738 JLINK_WriteReg(R14, 0x20000001)  returns 0x00 (0000ms, 2428ms total)
T0AF4 007:738 JLINK_WriteReg(R15 (PC), 0x20000112)  returns 0x00 (0000ms, 2428ms total)
T0AF4 007:738 JLINK_WriteReg(XPSR, 0x01000000)  returns 0x00 (0000ms, 2428ms total)
T0AF4 007:738 JLINK_WriteReg(MSP, 0x20001000)  returns 0x00 (0000ms, 2428ms total)
T0AF4 007:738 JLINK_WriteReg(PSP, 0x20001000)  returns 0x00 (0000ms, 2428ms total)
T0AF4 007:738 JLINK_WriteReg(CFBP, 0x00000000)  returns 0x00 (0000ms, 2428ms total)
T0AF4 007:738 JLINK_SetBPEx(Addr = 0x20000000, Type = 0xFFFFFFF2)  returns 0x0000000D (0000ms, 2428ms total)
T0AF4 007:738 JLINK_Go() -- CPU_ReadMem(4 bytes @ 0xE0001000) (0002ms, 2430ms total)
T0AF4 007:740 JLINK_IsHalted()  returns FALSE (0000ms, 2430ms total)
T0AF4 008:051 JLINK_IsHalted() -- CPU_ReadMem(2 bytes @ 0x20000000)  returns TRUE (0002ms, 2432ms total)
T0AF4 008:053 JLINK_ReadReg(R15 (PC))  returns 0x20000000 (0000ms, 2430ms total)
T0AF4 008:053 JLINK_ClrBPEx(BPHandle = 0x0000000D)  returns 0x00 (0000ms, 2430ms total)
T0AF4 008:054 JLINK_ReadReg(R0)  returns 0x00000000 (0000ms, 2430ms total)
T0AF4 008:062 JLINK_WriteMem(0x20000188, 0x0400 Bytes, ...) - Data: 70 B5 2D ED 02 8B 1E 25 9F ED 15 8B 00 24 16 4E ... -- CPU_WriteMem(1024 bytes @ 0x20000188)  returns 0x400 (0004ms, 2434ms total)
T0AF4 008:066 JLINK_WriteReg(R0, 0x08001000)  returns 0x00 (0000ms, 2434ms total)
T0AF4 008:066 JLINK_WriteReg(R1, 0x00000400)  returns 0x00 (0001ms, 2435ms total)
T0AF4 008:067 JLINK_WriteReg(R2, 0x20000188)  returns 0x00 (0000ms, 2435ms total)
T0AF4 008:067 JLINK_WriteReg(R3, 0x00000000)  returns 0x00 (0000ms, 2435ms total)
T0AF4 008:067 JLINK_WriteReg(R4, 0x00000000)  returns 0x00 (0000ms, 2435ms total)
T0AF4 008:067 JLINK_WriteReg(R5, 0x00000000)  returns 0x00 (0000ms, 2435ms total)
T0AF4 008:067 JLINK_WriteReg(R6, 0x00000000)  returns 0x00 (0000ms, 2435ms total)
T0AF4 008:067 JLINK_WriteReg(R7, 0x00000000)  returns 0x00 (0000ms, 2435ms total)
T0AF4 008:067 JLINK_WriteReg(R8, 0x00000000)  returns 0x00 (0000ms, 2435ms total)
T0AF4 008:067 JLINK_WriteReg(R9, 0x20000184)  returns 0x00 (0000ms, 2435ms total)
T0AF4 008:067 JLINK_WriteReg(R10, 0x00000000)  returns 0x00 (0000ms, 2435ms total)
T0AF4 008:067 JLINK_WriteReg(R11, 0x00000000)  returns 0x00 (0000ms, 2435ms total)
T0AF4 008:067 JLINK_WriteReg(R12, 0x00000000)  returns 0x00 (0000ms, 2435ms total)
T0AF4 008:067 JLINK_WriteReg(R13 (SP), 0x20001000)  returns 0x00 (0000ms, 2435ms total)
T0AF4 008:067 JLINK_WriteReg(R14, 0x20000001)  returns 0x00 (0000ms, 2435ms total)
T0AF4 008:067 JLINK_WriteReg(R15 (PC), 0x20000112)  returns 0x00 (0001ms, 2436ms total)
T0AF4 008:068 JLINK_WriteReg(XPSR, 0x01000000)  returns 0x00 (0000ms, 2436ms total)
T0AF4 008:068 JLINK_WriteReg(MSP, 0x20001000)  returns 0x00 (0000ms, 2436ms total)
T0AF4 008:068 JLINK_WriteReg(PSP, 0x20001000)  returns 0x00 (0000ms, 2436ms total)
T0AF4 008:068 JLINK_WriteReg(CFBP, 0x00000000)  returns 0x00 (0000ms, 2436ms total)
T0AF4 008:068 JLINK_SetBPEx(Addr = 0x20000000, Type = 0xFFFFFFF2)  returns 0x0000000E (0000ms, 2436ms total)
T0AF4 008:068 JLINK_Go() -- CPU_ReadMem(4 bytes @ 0xE0001000) (0001ms, 2437ms total)
T0AF4 008:069 JLINK_IsHalted()  returns FALSE (0001ms, 2438ms total)
T0AF4 008:458 JLINK_IsHalted() -- CPU_ReadMem(2 bytes @ 0x20000000)  returns TRUE (0002ms, 2439ms total)
T0AF4 008:460 JLINK_ReadReg(R15 (PC))  returns 0x20000000 (0000ms, 2437ms total)
T0AF4 008:460 JLINK_ClrBPEx(BPHandle = 0x0000000E)  returns 0x00 (0000ms, 2437ms total)
T0AF4 008:460 JLINK_ReadReg(R0)  returns 0x00000000 (0000ms, 2437ms total)
T0AF4 008:463 JLINK_WriteMem(0x20000188, 0x0400 Bytes, ...) - Data: 94 ED 06 0A BD EC 02 8B BD E8 70 40 04 F0 5A B8 ... -- CPU_WriteMem(1024 bytes @ 0x20000188)  returns 0x400 (0005ms, 2442ms total)
T0AF4 008:468 JLINK_WriteReg(R0, 0x08001400)  returns 0x00 (0000ms, 2442ms total)
T0AF4 008:468 JLINK_WriteReg(R1, 0x00000400)  returns 0x00 (0000ms, 2442ms total)
T0AF4 008:468 JLINK_WriteReg(R2, 0x20000188)  returns 0x00 (0000ms, 2442ms total)
T0AF4 008:468 JLINK_WriteReg(R3, 0x00000000)  returns 0x00 (0000ms, 2442ms total)
T0AF4 008:468 JLINK_WriteReg(R4, 0x00000000)  returns 0x00 (0000ms, 2442ms total)
T0AF4 008:468 JLINK_WriteReg(R5, 0x00000000)  returns 0x00 (0000ms, 2442ms total)
T0AF4 008:468 JLINK_WriteReg(R6, 0x00000000)  returns 0x00 (0000ms, 2442ms total)
T0AF4 008:468 JLINK_WriteReg(R7, 0x00000000)  returns 0x00 (0000ms, 2442ms total)
T0AF4 008:468 JLINK_WriteReg(R8, 0x00000000)  returns 0x00 (0000ms, 2442ms total)
T0AF4 008:468 JLINK_WriteReg(R9, 0x20000184)  returns 0x00 (0000ms, 2442ms total)
T0AF4 008:468 JLINK_WriteReg(R10, 0x00000000)  returns 0x00 (0000ms, 2442ms total)
T0AF4 008:468 JLINK_WriteReg(R11, 0x00000000)  returns 0x00 (0000ms, 2442ms total)
T0AF4 008:468 JLINK_WriteReg(R12, 0x00000000)  returns 0x00 (0000ms, 2442ms total)
T0AF4 008:468 JLINK_WriteReg(R13 (SP), 0x20001000)  returns 0x00 (0000ms, 2442ms total)
T0AF4 008:468 JLINK_WriteReg(R14, 0x20000001)  returns 0x00 (0000ms, 2442ms total)
T0AF4 008:468 JLINK_WriteReg(R15 (PC), 0x20000112)  returns 0x00 (0000ms, 2442ms total)
T0AF4 008:468 JLINK_WriteReg(XPSR, 0x01000000)  returns 0x00 (0000ms, 2442ms total)
T0AF4 008:468 JLINK_WriteReg(MSP, 0x20001000)  returns 0x00 (0000ms, 2442ms total)
T0AF4 008:468 JLINK_WriteReg(PSP, 0x20001000)  returns 0x00 (0000ms, 2442ms total)
T0AF4 008:468 JLINK_WriteReg(CFBP, 0x00000000)  returns 0x00 (0001ms, 2443ms total)
T0AF4 008:469 JLINK_SetBPEx(Addr = 0x20000000, Type = 0xFFFFFFF2)  returns 0x0000000F (0000ms, 2443ms total)
T0AF4 008:469 JLINK_Go() -- CPU_ReadMem(4 bytes @ 0xE0001000) (0001ms, 2444ms total)
T0AF4 008:470 JLINK_IsHalted()  returns FALSE (0000ms, 2444ms total)
T0AF4 008:802 JLINK_IsHalted() -- CPU_ReadMem(2 bytes @ 0x20000000)  returns TRUE (0001ms, 2445ms total)
T0AF4 008:803 JLINK_ReadReg(R15 (PC))  returns 0x20000000 (0000ms, 2444ms total)
T0AF4 008:803 JLINK_ClrBPEx(BPHandle = 0x0000000F)  returns 0x00 (0000ms, 2444ms total)
T0AF4 008:803 JLINK_ReadReg(R0)  returns 0x00000000 (0001ms, 2445ms total)
T0AF4 008:811 JLINK_WriteMem(0x20000188, 0x0400 Bytes, ...) - Data: F2 F1 01 EB 81 01 49 00 00 91 00 99 29 B1 00 99 ... -- CPU_WriteMem(1024 bytes @ 0x20000188)  returns 0x400 (0005ms, 2450ms total)
T0AF4 008:816 JLINK_WriteReg(R0, 0x08001800)  returns 0x00 (0000ms, 2450ms total)
T0AF4 008:816 JLINK_WriteReg(R1, 0x00000400)  returns 0x00 (0000ms, 2450ms total)
T0AF4 008:816 JLINK_WriteReg(R2, 0x20000188)  returns 0x00 (0000ms, 2450ms total)
T0AF4 008:816 JLINK_WriteReg(R3, 0x00000000)  returns 0x00 (0000ms, 2450ms total)
T0AF4 008:816 JLINK_WriteReg(R4, 0x00000000)  returns 0x00 (0000ms, 2450ms total)
T0AF4 008:816 JLINK_WriteReg(R5, 0x00000000)  returns 0x00 (0000ms, 2450ms total)
T0AF4 008:816 JLINK_WriteReg(R6, 0x00000000)  returns 0x00 (0000ms, 2450ms total)
T0AF4 008:816 JLINK_WriteReg(R7, 0x00000000)  returns 0x00 (0000ms, 2450ms total)
T0AF4 008:816 JLINK_WriteReg(R8, 0x00000000)  returns 0x00 (0000ms, 2450ms total)
T0AF4 008:816 JLINK_WriteReg(R9, 0x20000184)  returns 0x00 (0000ms, 2450ms total)
T0AF4 008:816 JLINK_WriteReg(R10, 0x00000000)  returns 0x00 (0000ms, 2450ms total)
T0AF4 008:816 JLINK_WriteReg(R11, 0x00000000)  returns 0x00 (0000ms, 2450ms total)
T0AF4 008:816 JLINK_WriteReg(R12, 0x00000000)  returns 0x00 (0000ms, 2450ms total)
T0AF4 008:816 JLINK_WriteReg(R13 (SP), 0x20001000)  returns 0x00 (0000ms, 2450ms total)
T0AF4 008:816 JLINK_WriteReg(R14, 0x20000001)  returns 0x00 (0000ms, 2450ms total)
T0AF4 008:816 JLINK_WriteReg(R15 (PC), 0x20000112)  returns 0x00 (0000ms, 2450ms total)
T0AF4 008:816 JLINK_WriteReg(XPSR, 0x01000000)  returns 0x00 (0000ms, 2450ms total)
T0AF4 008:816 JLINK_WriteReg(MSP, 0x20001000)  returns 0x00 (0000ms, 2450ms total)
T0AF4 008:816 JLINK_WriteReg(PSP, 0x20001000)  returns 0x00 (0000ms, 2450ms total)
T0AF4 008:816 JLINK_WriteReg(CFBP, 0x00000000)  returns 0x00 (0000ms, 2450ms total)
T0AF4 008:816 JLINK_SetBPEx(Addr = 0x20000000, Type = 0xFFFFFFF2)  returns 0x00000010 (0000ms, 2450ms total)
T0AF4 008:816 JLINK_Go() -- CPU_ReadMem(4 bytes @ 0xE0001000) (0002ms, 2452ms total)
T0AF4 008:818 JLINK_IsHalted()  returns FALSE (0000ms, 2452ms total)
T0AF4 009:158 JLINK_IsHalted() -- CPU_ReadMem(2 bytes @ 0x20000000)  returns TRUE (0002ms, 2454ms total)
T0AF4 009:160 JLINK_ReadReg(R15 (PC))  returns 0x20000000 (0000ms, 2452ms total)
T0AF4 009:160 JLINK_ClrBPEx(BPHandle = 0x00000010)  returns 0x00 (0001ms, 2453ms total)
T0AF4 009:161 JLINK_ReadReg(R0)  returns 0x00000000 (0000ms, 2453ms total)
T0AF4 009:166 JLINK_WriteMem(0x20000188, 0x0400 Bytes, ...) - Data: 19 43 08 43 10 60 22 68 50 69 20 F0 07 00 61 6A ... -- CPU_WriteMem(1024 bytes @ 0x20000188)  returns 0x400 (0004ms, 2457ms total)
T0AF4 009:170 JLINK_WriteReg(R0, 0x08001C00)  returns 0x00 (0000ms, 2457ms total)
T0AF4 009:170 JLINK_WriteReg(R1, 0x00000400)  returns 0x00 (0000ms, 2457ms total)
T0AF4 009:170 JLINK_WriteReg(R2, 0x20000188)  returns 0x00 (0001ms, 2458ms total)
T0AF4 009:171 JLINK_WriteReg(R3, 0x00000000)  returns 0x00 (0000ms, 2458ms total)
T0AF4 009:171 JLINK_WriteReg(R4, 0x00000000)  returns 0x00 (0000ms, 2458ms total)
T0AF4 009:171 JLINK_WriteReg(R5, 0x00000000)  returns 0x00 (0000ms, 2458ms total)
T0AF4 009:171 JLINK_WriteReg(R6, 0x00000000)  returns 0x00 (0000ms, 2458ms total)
T0AF4 009:171 JLINK_WriteReg(R7, 0x00000000)  returns 0x00 (0000ms, 2458ms total)
T0AF4 009:171 JLINK_WriteReg(R8, 0x00000000)  returns 0x00 (0000ms, 2458ms total)
T0AF4 009:171 JLINK_WriteReg(R9, 0x20000184)  returns 0x00 (0000ms, 2458ms total)
T0AF4 009:171 JLINK_WriteReg(R10, 0x00000000)  returns 0x00 (0000ms, 2458ms total)
T0AF4 009:171 JLINK_WriteReg(R11, 0x00000000)  returns 0x00 (0000ms, 2458ms total)
T0AF4 009:171 JLINK_WriteReg(R12, 0x00000000)  returns 0x00 (0000ms, 2458ms total)
T0AF4 009:171 JLINK_WriteReg(R13 (SP), 0x20001000)  returns 0x00 (0000ms, 2458ms total)
T0AF4 009:171 JLINK_WriteReg(R14, 0x20000001)  returns 0x00 (0000ms, 2458ms total)
T0AF4 009:171 JLINK_WriteReg(R15 (PC), 0x20000112)  returns 0x00 (0000ms, 2458ms total)
T0AF4 009:171 JLINK_WriteReg(XPSR, 0x01000000)  returns 0x00 (0000ms, 2458ms total)
T0AF4 009:171 JLINK_WriteReg(MSP, 0x20001000)  returns 0x00 (0000ms, 2458ms total)
T0AF4 009:171 JLINK_WriteReg(PSP, 0x20001000)  returns 0x00 (0000ms, 2458ms total)
T0AF4 009:171 JLINK_WriteReg(CFBP, 0x00000000)  returns 0x00 (0000ms, 2458ms total)
T0AF4 009:171 JLINK_SetBPEx(Addr = 0x20000000, Type = 0xFFFFFFF2)  returns 0x00000011 (0000ms, 2458ms total)
T0AF4 009:171 JLINK_Go() -- CPU_ReadMem(4 bytes @ 0xE0001000) (0002ms, 2460ms total)
T0AF4 009:173 JLINK_IsHalted()  returns FALSE (0000ms, 2460ms total)
T0AF4 009:539 JLINK_IsHalted() -- CPU_ReadMem(2 bytes @ 0x20000000)  returns TRUE (0002ms, 2462ms total)
T0AF4 009:541 JLINK_ReadReg(R15 (PC))  returns 0x20000000 (0000ms, 2460ms total)
T0AF4 009:541 JLINK_ClrBPEx(BPHandle = 0x00000011)  returns 0x00 (0000ms, 2460ms total)
T0AF4 009:541 JLINK_ReadReg(R0)  returns 0x00000000 (0000ms, 2460ms total)
T0AF4 009:545 JLINK_WriteMem(0x20000188, 0x0400 Bytes, ...) - Data: A2 68 20 F0 F0 00 10 43 38 60 20 78 10 F0 01 0F ... -- CPU_WriteMem(1024 bytes @ 0x20000188)  returns 0x400 (0004ms, 2464ms total)
T0AF4 009:549 JLINK_WriteReg(R0, 0x08002000)  returns 0x00 (0000ms, 2464ms total)
T0AF4 009:549 JLINK_WriteReg(R1, 0x00000400)  returns 0x00 (0000ms, 2464ms total)
T0AF4 009:549 JLINK_WriteReg(R2, 0x20000188)  returns 0x00 (0000ms, 2464ms total)
T0AF4 009:549 JLINK_WriteReg(R3, 0x00000000)  returns 0x00 (0000ms, 2464ms total)
T0AF4 009:549 JLINK_WriteReg(R4, 0x00000000)  returns 0x00 (0000ms, 2464ms total)
T0AF4 009:549 JLINK_WriteReg(R5, 0x00000000)  returns 0x00 (0000ms, 2464ms total)
T0AF4 009:549 JLINK_WriteReg(R6, 0x00000000)  returns 0x00 (0000ms, 2464ms total)
T0AF4 009:549 JLINK_WriteReg(R7, 0x00000000)  returns 0x00 (0000ms, 2464ms total)
T0AF4 009:549 JLINK_WriteReg(R8, 0x00000000)  returns 0x00 (0000ms, 2464ms total)
T0AF4 009:549 JLINK_WriteReg(R9, 0x20000184)  returns 0x00 (0000ms, 2464ms total)
T0AF4 009:549 JLINK_WriteReg(R10, 0x00000000)  returns 0x00 (0000ms, 2464ms total)
T0AF4 009:549 JLINK_WriteReg(R11, 0x00000000)  returns 0x00 (0000ms, 2464ms total)
